Sample in Buffer,Sample in Window,TRIGGER,openmips0/id0/pc_plus_4[31:0],openmips0/id0/reg1_o[31:0],openmips0/pc_reg0/new_pc[31:0],openmips0/pc_reg0/branch_target_address_i[31:0],inst[31:0],inst_addr[31:0],ram_data_i[31:0],ram_addr[31:0],ram_sel[3:0],ram_data_o[31:0],mmu_memory_version1/directUart/ext_uart_rx[7:0],mmu_memory_version1/directUart/ext_uart_tx[7:0],openmips0/pc_reg0/branch_flag_i,u_ila_0_ext_uart_busy,u_ila_0_ext_uart_ready,pause_signal,ram_we
0,0,0,80001600,bfd00000,00000000,00000000,31080002,80001600,00000001,00000000,f,00000000,80,07,0,0,0,0,0
1,1,0,80001604,8f900000,00000000,00000000,15000003,80001604,00000001,00000000,f,00000000,80,07,0,0,0,0,0
2,2,0,80001604,00000001,00000000,00000000,15000003,80001604,00000001,bfd003fc,1,00000000,80,07,0,0,0,0,0
3,3,0,80001608,00000000,00000000,00000000,00000000,80001608,00000001,00000000,f,00000000,80,07,0,0,0,0,0
4,4,0,8000160c,00000000,00000000,00000000,0800057f,8000160c,00000001,00000000,f,00000000,80,07,0,0,0,0,0
5,5,0,80001610,00000000,00000000,800015fc,00000000,80001610,00000001,00000000,f,00000000,80,07,1,0,0,0,0
6,6,0,80001614,00000000,00000000,00000000,812803fc,800015fc,00000001,00000000,f,00000000,80,07,0,0,0,0,0
7,7,0,80001600,bfd00000,00000000,00000000,31080002,80001600,00000001,00000000,f,00000000,80,07,0,0,0,0,0
8,8,0,80001604,8f900000,00000000,00000000,15000003,80001604,00000001,00000000,f,00000000,80,07,0,0,0,0,0
9,9,0,80001604,00000001,00000000,00000000,15000003,80001604,00000001,bfd003fc,1,00000000,80,07,0,0,0,0,0
10,10,0,80001608,00000000,00000000,00000000,00000000,80001608,00000001,00000000,f,00000000,80,07,0,0,0,0,0
11,11,0,8000160c,00000000,00000000,00000000,0800057f,8000160c,00000001,00000000,f,00000000,80,07,0,0,0,0,0
12,12,0,80001610,00000000,00000000,800015fc,00000000,80001610,00000001,00000000,f,00000000,80,07,1,0,0,0,0
13,13,0,80001614,00000000,00000000,00000000,812803fc,800015fc,00000001,00000000,f,00000000,80,07,0,0,0,0,0
14,14,0,80001600,bfd00000,00000000,00000000,31080002,80001600,00000001,00000000,f,00000000,80,07,0,0,0,0,0
15,15,0,80001604,8f900000,00000000,00000000,15000003,80001604,00000001,00000000,f,00000000,80,07,0,0,0,0,0
16,16,0,80001604,00000001,00000000,00000000,15000003,80001604,00000001,bfd003fc,1,00000000,80,07,0,0,0,0,0
17,17,0,80001608,00000000,00000000,00000000,00000000,80001608,00000001,00000000,f,00000000,80,07,0,0,0,0,0
18,18,0,8000160c,00000000,00000000,00000000,0800057f,8000160c,00000001,00000000,f,00000000,80,07,0,0,0,0,0
19,19,0,80001610,00000000,00000000,800015fc,00000000,80001610,00000001,00000000,f,00000000,80,07,1,0,0,0,0
20,20,0,80001614,00000000,00000000,00000000,812803fc,800015fc,00000001,00000000,f,00000000,80,07,0,0,1,0,0
21,21,0,80001600,bfd00000,00000000,00000000,31080002,80001600,00000001,00000000,f,00000000,80,07,0,0,1,0,0
22,22,0,80001604,8f900000,00000000,00000000,15000003,80001604,00000001,00000000,f,00000000,80,07,0,0,1,0,0
23,23,0,80001604,00000003,00000000,00000000,15000003,80001604,00000003,bfd003fc,1,00000000,80,07,0,0,1,0,0
24,24,0,80001608,00000002,00000000,80001614,00000000,80001608,00000003,00000000,f,00000000,80,07,1,0,1,0,0
25,25,0,8000160c,00000000,00000000,00000000,3c09bfd0,80001614,00000003,00000000,f,00000000,80,07,0,0,1,0,0
26,26,0,80001618,00000000,00000000,00000000,812203f8,80001618,00000003,00000000,f,00000000,80,07,0,0,1,0,0
27,27,0,8000161c,bfd00000,00000000,00000000,03e00008,8000161c,00000003,00000000,f,00000000,80,07,0,0,1,0,0
28,28,0,80001620,80001668,00000000,80001668,00000000,80001620,00000003,00000000,f,00000000,80,07,1,0,1,0,0
29,29,0,80001624,00000000,00000000,00000000,00029825,80001668,00000080,bfd003f8,1,00000000,80,07,0,0,0,0,0
30,30,0,8000166c,00000000,00000000,00000000,321000ff,8000166c,00000001,00000000,f,00000000,80,07,0,0,0,0,0
31,31,0,80001670,ffffffb4,00000000,00000000,327300ff,80001670,00000001,00000000,f,00000000,80,07,0,0,0,0,0
32,32,0,80001674,ffffff80,00000000,00000000,325200ff,80001674,00000001,00000000,f,00000000,80,07,0,0,0,0,0
33,33,0,80001678,00000000,00000000,00000000,323100ff,80001678,00000001,00000000,f,00000000,80,07,0,0,0,0,0
34,34,0,8000167c,00000020,00000000,00000000,00131025,8000167c,00000001,00000000,f,00000000,80,07,0,0,0,0,0
35,35,0,80001680,00000000,00000000,00000000,00021200,80001680,00000001,00000000,f,00000000,80,07,0,0,0,0,0
36,36,0,80001684,00000008,00000000,00000000,00521025,80001684,00000001,00000000,f,00000000,80,07,0,0,0,0,0
37,37,0,80001688,00008000,00000000,00000000,00021200,80001688,00000001,00000000,f,00000000,80,07,0,0,0,0,0
38,38,0,8000168c,00000008,00000000,00000000,00511025,8000168c,00000001,00000000,f,00000000,80,07,0,0,0,0,0
39,39,0,80001690,00800000,00000000,00000000,00021200,80001690,00000001,00000000,f,00000000,80,07,0,0,0,0,0
40,40,0,80001694,00000008,00000000,00000000,00501025,80001694,00000001,00000000,f,00000000,80,07,0,0,0,0,0
41,41,0,80001698,80002000,00000000,00000000,8fbf0000,80001698,00000001,00000000,f,00000000,80,07,0,0,0,0,0
42,42,0,8000169c,807ffeec,00000000,00000000,8fb00004,8000169c,00000001,00000000,f,00000000,80,07,0,0,0,0,0
43,43,0,800016a0,807ffeec,00000000,00000000,8fb10008,800016a0,00000001,00000000,f,00000000,80,07,0,0,0,0,0
44,44,0,800016a4,807ffeec,00000000,00000000,8fb2000c,800016a4,80001484,807ffeec,f,00000000,80,07,0,0,0,0,0
45,45,0,800016a8,807ffeec,00000000,00000000,8fb30010,800016a8,00000000,807ffef0,f,00000000,80,07,0,0,0,0,0
46,46,0,800016ac,807ffeec,00000000,00000000,27bd0014,800016ac,00000000,807ffef4,f,00000000,80,07,0,0,0,0,0
47,47,0,800016b0,807ffeec,00000000,00000000,03e00008,800016b0,00000000,807ffef8,f,00000000,80,07,0,0,0,0,0
48,48,0,800016b4,80001484,00000000,80001484,00000000,800016b4,00000000,807ffefc,f,00000000,80,07,1,0,0,0,0
49,49,0,800016b8,00000000,00000000,00000000,34040006,80001484,00000001,00000000,f,00000000,80,07,0,0,0,0,0
50,50,0,80001488,00000000,00000000,00000000,0c000573,80001488,00000001,00000000,f,00000000,80,07,0,0,0,0,0
51,51,0,8000148c,00000000,00000000,800015cc,00000000,8000148c,00000001,00000000,f,00000000,80,07,1,0,0,0,0
52,52,0,80001490,00000000,00000000,00000000,3c09bfd0,800015cc,00000001,00000000,f,00000000,80,07,0,0,0,0,0
53,53,0,800015d0,00000000,00000000,00000000,812803fc,800015d0,00000001,00000000,f,00000000,80,07,0,0,0,0,0
54,54,0,800015d4,bfd00000,00000000,00000000,31080001,800015d4,00000001,00000000,f,00000000,80,07,0,0,0,0,0
55,55,0,800015d8,bfd00000,00000000,00000000,15000003,800015d8,00000001,00000000,f,00000000,80,07,0,0,0,0,0
56,56,0,800015d8,00000001,00000000,00000000,15000003,800015d8,00000001,bfd003fc,1,00000000,80,07,0,0,0,0,0
57,57,0,800015dc,00000001,00000000,800015e8,00000000,800015dc,00000001,00000000,f,00000000,80,07,1,0,0,0,0
58,58,0,800015e0,00000000,00000000,00000000,3c09bfd0,800015e8,00000001,00000000,f,00000000,80,07,0,0,0,0,0
59,59,0,800015ec,00000000,00000000,00000000,a12403f8,800015ec,00000001,00000000,f,00000000,80,07,0,0,0,0,0
60,60,0,800015f0,bfd00000,00000000,00000000,03e00008,800015f0,00000001,00000000,f,00000000,80,07,0,0,0,0,0
61,61,0,800015f4,80001490,00000000,80001490,00000000,800015f4,00000001,00000000,f,00000000,80,07,1,0,0,0,0
62,62,0,800015f8,00000000,00000000,00000000,0040d025,80001490,00000000,bfd003f8,1,06060606,80,06,0,1,0,0,1
63,63,0,80001494,800020b4,00000000,00000000,3c1f807f,80001494,00000000,00000000,f,00000000,80,06,0,1,0,0,0
64,64,0,80001498,00000000,00000000,00000000,27ff0000,80001498,00000000,00000000,f,00000000,80,06,0,1,0,0,0
65,65,0,8000149c,807f0000,00000000,00000000,afe20078,8000149c,00000000,00000000,f,00000000,80,06,0,1,0,0,0
66,66,0,800014a0,807f0000,00000000,00000000,affd007c,800014a0,00000000,00000000,f,00000000,80,06,0,1,0,0,0
67,67,0,800014a4,807f0000,00000000,00000000,8fe10000,800014a4,00000000,00000000,f,00000000,80,06,0,1,0,0,0
68,68,0,800014a8,807f0000,00000000,00000000,8fe20004,800014a8,00000000,807f0078,f,800020b4,80,06,0,1,0,0,1
69,69,0,800014ac,807f0000,00000000,00000000,8fe30008,800014ac,00000000,807f007c,f,807fff00,80,06,0,1,0,0,1
70,70,0,800014b0,807f0000,00000000,00000000,8fe4000c,800014b0,00000000,807f0000,f,00000000,80,06,0,1,0,0,0
71,71,0,800014b4,807f0000,00000000,00000000,8fe50010,800014b4,00000000,807f0004,f,00000000,80,06,0,1,0,0,0
72,72,0,800014b8,807f0000,00000000,00000000,8fe60014,800014b8,00000000,807f0008,f,00000000,80,06,0,1,0,0,0
73,73,0,800014bc,807f0000,00000000,00000000,8fe70018,800014bc,00000000,807f000c,f,00000000,80,06,0,1,0,0,0
74,74,0,800014c0,807f0000,00000000,00000000,8fe8001c,800014c0,00000000,807f0010,f,00000000,80,06,0,1,0,0,0
75,75,0,800014c4,807f0000,00000000,00000000,8fe90020,800014c4,00000000,807f0014,f,00000000,80,06,0,1,0,0,0
76,76,0,800014c8,807f0000,00000000,00000000,8fea0024,800014c8,00000000,807f0018,f,00000000,80,06,0,1,0,0,0
77,77,0,800014cc,807f0000,00000000,00000000,8feb0028,800014cc,00000000,807f001c,f,00000000,80,06,0,1,0,0,0
78,78,0,800014d0,807f0000,00000000,00000000,8fec002c,800014d0,00000000,807f0020,f,00000000,80,06,0,1,0,0,0
79,79,0,800014d4,807f0000,00000000,00000000,8fed0030,800014d4,00000000,807f0024,f,00000000,80,06,0,1,0,0,0
80,80,0,800014d8,807f0000,00000000,00000000,8fee0034,800014d8,00000000,807f0028,f,00000000,80,06,0,1,0,0,0
81,81,0,800014dc,807f0000,00000000,00000000,8fef0038,800014dc,00000000,807f002c,f,00000000,80,06,0,1,0,0,0
82,82,0,800014e0,807f0000,00000000,00000000,8ff0003c,800014e0,00000000,807f0030,f,00000000,80,06,0,1,0,0,0
83,83,0,800014e4,807f0000,00000000,00000000,8ff10040,800014e4,00000000,807f0034,f,00000000,80,06,0,1,0,0,0
84,84,0,800014e8,807f0000,00000000,00000000,8ff20044,800014e8,00000000,807f0038,f,00000000,80,06,0,1,0,0,0
85,85,0,800014ec,807f0000,00000000,00000000,8ff30048,800014ec,00000000,807f003c,f,00000000,80,06,0,1,0,0,0
86,86,0,800014f0,807f0000,00000000,00000000,8ff4004c,800014f0,00000000,807f0040,f,00000000,80,06,0,1,0,0,0
87,87,0,800014f4,807f0000,00000000,00000000,8ff50050,800014f4,00000000,807f0044,f,00000000,80,06,0,1,0,0,0
88,88,0,800014f8,807f0000,00000000,00000000,8ff60054,800014f8,00000000,807f0048,f,00000000,80,06,0,1,0,0,0
89,89,0,800014fc,807f0000,00000000,00000000,8ff70058,800014fc,00000000,807f004c,f,00000000,80,06,0,1,0,0,0
90,90,0,80001500,807f0000,00000000,00000000,8ff8005c,80001500,00000000,807f0050,f,00000000,80,06,0,1,0,0,0
91,91,0,80001504,807f0000,00000000,00000000,8ff90060,80001504,00000000,807f0054,f,00000000,80,06,0,1,0,0,0
92,92,0,80001508,807f0000,00000000,00000000,8ffc006c,80001508,00000000,807f0058,f,00000000,80,06,0,1,0,0,0
93,93,0,8000150c,807f0000,00000000,00000000,8ffd0070,8000150c,00000000,807f005c,f,00000000,80,06,0,1,0,0,0
94,94,0,80001510,807f0000,00000000,00000000,8ffe0074,80001510,00000000,807f0060,f,00000000,80,06,0,1,0,0,0
95,95,0,80001514,807f0000,00000000,00000000,3c1f8000,80001514,00000000,807f006c,f,00000000,80,06,0,1,0,0,0
96,96,0,80001518,00000000,00000000,00000000,27ff1528,80001518,807f0000,807f0070,f,00000000,80,06,0,1,0,0,0
97,97,0,8000151c,80000000,00000000,00000000,00000000,8000151c,807f0000,807f0074,f,00000000,80,06,0,1,0,0,0
98,98,0,80001520,00000000,00000000,00000000,03400008,80001520,00000000,00000000,f,00000000,80,06,0,1,0,0,0
99,99,0,80001524,800020b4,00000000,800020b4,00000000,80001524,00000000,00000000,f,00000000,80,06,1,1,0,0,0
100,100,1,80001528,00000000,00000000,00000000,3c080200,800020b4,00000000,00000000,f,00000000,80,06,0,1,0,0,0
101,101,0,800020b8,00000000,00000000,00000000,27bdfffc,800020b8,00000000,00000000,f,00000000,80,06,0,1,0,0,0
102,102,0,800020bc,807f0000,00000000,00000000,afa80000,800020bc,00000000,00000000,f,00000000,80,06,0,1,0,0,0
103,103,0,800020c0,807efffc,00000000,00000000,8fa90000,800020c0,00000000,00000000,f,00000000,80,06,0,1,0,0,0
104,104,0,800020c4,807efffc,00000000,00000000,2529ffff,800020c4,00000000,00000000,f,00000000,80,06,0,1,0,0,0
105,105,0,800020c8,00121600,00000000,00000000,afa90000,800020c8,00000000,807efffc,f,02000000,80,06,0,1,0,0,1
106,106,0,800020c8,02000000,00000000,00000000,afa90000,800020c8,02000000,807efffc,f,00000000,80,06,0,1,0,0,0
107,107,0,800020cc,807efffc,00000000,00000000,8fa80000,800020cc,00000000,00000000,f,00000000,80,06,0,1,0,0,0
108,108,0,800020d0,807efffc,00000000,00000000,1500fffa,800020d0,00000000,00000000,f,00000000,80,06,0,1,0,0,0
109,109,0,800020d4,801efffc,00000000,800020bc,00000000,800020d4,00000000,807efffc,f,01ffffff,80,06,1,1,0,0,1
110,110,0,800020d4,01ffffff,00000000,800020bc,00000000,800020d4,01ffffff,807efffc,f,00000000,80,06,1,1,0,0,0
111,111,0,800020d8,00000000,00000000,00000000,afa80000,800020bc,00000000,00000000,f,00000000,80,06,0,1,0,0,0
112,112,0,800020c0,807efffc,00000000,00000000,8fa90000,800020c0,00000000,00000000,f,00000000,80,06,0,1,0,0,0
113,113,0,800020c4,807efffc,00000000,00000000,2529ffff,800020c4,00000000,00000000,f,00000000,80,06,0,1,0,0,0
114,114,0,800020c8,801efffc,00000000,00000000,afa90000,800020c8,00000000,807efffc,f,01ffffff,80,06,0,1,0,0,1
115,115,0,800020c8,01ffffff,00000000,00000000,afa90000,800020c8,01ffffff,807efffc,f,00000000,80,06,0,1,0,0,0
116,116,0,800020cc,807efffc,00000000,00000000,8fa80000,800020cc,00000000,00000000,f,00000000,80,06,0,1,0,0,0
117,117,0,800020d0,807efffc,00000000,00000000,1500fffa,800020d0,00000000,00000000,f,00000000,80,06,0,1,0,0,0
118,118,0,800020d4,801efffc,00000000,800020bc,00000000,800020d4,00000000,807efffc,f,01fffffe,80,06,1,1,0,0,1
119,119,0,800020d4,01fffffe,00000000,800020bc,00000000,800020d4,01fffffe,807efffc,f,00000000,80,06,1,1,0,0,0
120,120,0,800020d8,00000000,00000000,00000000,afa80000,800020bc,00000000,00000000,f,00000000,80,06,0,1,0,0,0
121,121,0,800020c0,807efffc,00000000,00000000,8fa90000,800020c0,00000000,00000000,f,00000000,80,06,0,1,0,0,0
122,122,0,800020c4,807efffc,00000000,00000000,2529ffff,800020c4,00000000,00000000,f,00000000,80,06,0,1,0,0,0
123,123,0,800020c8,801efffc,00000000,00000000,afa90000,800020c8,00000000,807efffc,f,01fffffe,80,06,0,1,0,0,1
124,124,0,800020c8,01fffffe,00000000,00000000,afa90000,800020c8,01fffffe,807efffc,f,00000000,80,06,0,1,0,0,0
125,125,0,800020cc,807efffc,00000000,00000000,8fa80000,800020cc,00000000,00000000,f,00000000,80,06,0,1,0,0,0
126,126,0,800020d0,807efffc,00000000,00000000,1500fffa,800020d0,00000000,00000000,f,00000000,80,06,0,1,0,0,0
127,127,0,800020d4,801efffc,00000000,800020bc,00000000,800020d4,00000000,807efffc,f,01fffffd,80,06,1,1,0,0,1
128,128,0,800020d4,01fffffd,00000000,800020bc,00000000,800020d4,01fffffd,807efffc,f,00000000,80,06,1,1,0,0,0
129,129,0,800020d8,00000000,00000000,00000000,afa80000,800020bc,00000000,00000000,f,00000000,80,06,0,1,0,0,0
130,130,0,800020c0,807efffc,00000000,00000000,8fa90000,800020c0,00000000,00000000,f,00000000,80,06,0,1,0,0,0
131,131,0,800020c4,807efffc,00000000,00000000,2529ffff,800020c4,00000000,00000000,f,00000000,80,06,0,1,0,0,0
132,132,0,800020c8,801efffc,00000000,00000000,afa90000,800020c8,00000000,807efffc,f,01fffffd,80,06,0,1,0,0,1
133,133,0,800020c8,01fffffd,00000000,00000000,afa90000,800020c8,01fffffd,807efffc,f,00000000,80,06,0,1,0,0,0
134,134,0,800020cc,807efffc,00000000,00000000,8fa80000,800020cc,00000000,00000000,f,00000000,80,06,0,1,0,0,0
135,135,0,800020d0,807efffc,00000000,00000000,1500fffa,800020d0,00000000,00000000,f,00000000,80,06,0,1,0,0,0
136,136,0,800020d4,801efffc,00000000,800020bc,00000000,800020d4,00000000,807efffc,f,01fffffc,80,06,1,1,0,0,1
137,137,0,800020d4,01fffffc,00000000,800020bc,00000000,800020d4,01fffffc,807efffc,f,00000000,80,06,1,1,0,0,0
138,138,0,800020d8,00000000,00000000,00000000,afa80000,800020bc,00000000,00000000,f,00000000,80,06,0,1,0,0,0
139,139,0,800020c0,807efffc,00000000,00000000,8fa90000,800020c0,00000000,00000000,f,00000000,80,06,0,1,0,0,0
140,140,0,800020c4,807efffc,00000000,00000000,2529ffff,800020c4,00000000,00000000,f,00000000,80,06,0,1,0,0,0
141,141,0,800020c8,801efffc,00000000,00000000,afa90000,800020c8,00000000,807efffc,f,01fffffc,80,06,0,1,0,0,1
142,142,0,800020c8,01fffffc,00000000,00000000,afa90000,800020c8,01fffffc,807efffc,f,00000000,80,06,0,1,0,0,0
143,143,0,800020cc,807efffc,00000000,00000000,8fa80000,800020cc,00000000,00000000,f,00000000,80,06,0,1,0,0,0
144,144,0,800020d0,807efffc,00000000,00000000,1500fffa,800020d0,00000000,00000000,f,00000000,80,06,0,1,0,0,0
145,145,0,800020d4,801efffc,00000000,800020bc,00000000,800020d4,00000000,807efffc,f,01fffffb,80,06,1,1,0,0,1
146,146,0,800020d4,01fffffb,00000000,800020bc,00000000,800020d4,01fffffb,807efffc,f,00000000,80,06,1,1,0,0,0
147,147,0,800020d8,00000000,00000000,00000000,afa80000,800020bc,00000000,00000000,f,00000000,80,06,0,1,0,0,0
148,148,0,800020c0,807efffc,00000000,00000000,8fa90000,800020c0,00000000,00000000,f,00000000,80,06,0,1,0,0,0
149,149,0,800020c4,807efffc,00000000,00000000,2529ffff,800020c4,00000000,00000000,f,00000000,80,06,0,1,0,0,0
150,150,0,800020c8,801efffc,00000000,00000000,afa90000,800020c8,00000000,807efffc,f,01fffffb,80,06,0,1,0,0,1
151,151,0,800020c8,01fffffb,00000000,00000000,afa90000,800020c8,01fffffb,807efffc,f,00000000,80,06,0,1,0,0,0
152,152,0,800020cc,807efffc,00000000,00000000,8fa80000,800020cc,00000000,00000000,f,00000000,80,06,0,1,0,0,0
153,153,0,800020d0,807efffc,00000000,00000000,1500fffa,800020d0,00000000,00000000,f,00000000,80,06,0,1,0,0,0
154,154,0,800020d4,801efffc,00000000,800020bc,00000000,800020d4,00000000,807efffc,f,01fffffa,80,06,1,1,0,0,1
155,155,0,800020d4,01fffffa,00000000,800020bc,00000000,800020d4,01fffffa,807efffc,f,00000000,80,06,1,1,0,0,0
156,156,0,800020d8,00000000,00000000,00000000,afa80000,800020bc,00000000,00000000,f,00000000,80,06,0,1,0,0,0
157,157,0,800020c0,807efffc,00000000,00000000,8fa90000,800020c0,00000000,00000000,f,00000000,80,06,0,1,0,0,0
158,158,0,800020c4,807efffc,00000000,00000000,2529ffff,800020c4,00000000,00000000,f,00000000,80,06,0,1,0,0,0
159,159,0,800020c8,801efffc,00000000,00000000,afa90000,800020c8,00000000,807efffc,f,01fffffa,80,06,0,1,0,0,1
160,160,0,800020c8,01fffffa,00000000,00000000,afa90000,800020c8,01fffffa,807efffc,f,00000000,80,06,0,1,0,0,0
161,161,0,800020cc,807efffc,00000000,00000000,8fa80000,800020cc,00000000,00000000,f,00000000,80,06,0,1,0,0,0
162,162,0,800020d0,807efffc,00000000,00000000,1500fffa,800020d0,00000000,00000000,f,00000000,80,06,0,1,0,0,0
163,163,0,800020d4,801efffc,00000000,800020bc,00000000,800020d4,00000000,807efffc,f,01fffff9,80,06,1,1,0,0,1
164,164,0,800020d4,01fffff9,00000000,800020bc,00000000,800020d4,01fffff9,807efffc,f,00000000,80,06,1,1,0,0,0
165,165,0,800020d8,00000000,00000000,00000000,afa80000,800020bc,00000000,00000000,f,00000000,80,06,0,1,0,0,0
166,166,0,800020c0,807efffc,00000000,00000000,8fa90000,800020c0,00000000,00000000,f,00000000,80,06,0,1,0,0,0
167,167,0,800020c4,807efffc,00000000,00000000,2529ffff,800020c4,00000000,00000000,f,00000000,80,06,0,1,0,0,0
168,168,0,800020c8,801efffc,00000000,00000000,afa90000,800020c8,00000000,807efffc,f,01fffff9,80,06,0,1,0,0,1
169,169,0,800020c8,01fffff9,00000000,00000000,afa90000,800020c8,01fffff9,807efffc,f,00000000,80,06,0,1,0,0,0
170,170,0,800020cc,807efffc,00000000,00000000,8fa80000,800020cc,00000000,00000000,f,00000000,80,06,0,1,0,0,0
171,171,0,800020d0,807efffc,00000000,00000000,1500fffa,800020d0,00000000,00000000,f,00000000,80,06,0,1,0,0,0
172,172,0,800020d4,801efffc,00000000,800020bc,00000000,800020d4,00000000,807efffc,f,01fffff8,80,06,1,1,0,0,1
173,173,0,800020d4,01fffff8,00000000,800020bc,00000000,800020d4,01fffff8,807efffc,f,00000000,80,06,1,1,0,0,0
174,174,0,800020d8,00000000,00000000,00000000,afa80000,800020bc,00000000,00000000,f,00000000,80,06,0,1,0,0,0
175,175,0,800020c0,807efffc,00000000,00000000,8fa90000,800020c0,00000000,00000000,f,00000000,80,06,0,1,0,0,0
176,176,0,800020c4,807efffc,00000000,00000000,2529ffff,800020c4,00000000,00000000,f,00000000,80,06,0,1,0,0,0
177,177,0,800020c8,801efffc,00000000,00000000,afa90000,800020c8,00000000,807efffc,f,01fffff8,80,06,0,1,0,0,1
178,178,0,800020c8,01fffff8,00000000,00000000,afa90000,800020c8,01fffff8,807efffc,f,00000000,80,06,0,1,0,0,0
179,179,0,800020cc,807efffc,00000000,00000000,8fa80000,800020cc,00000000,00000000,f,00000000,80,06,0,1,0,0,0
180,180,0,800020d0,807efffc,00000000,00000000,1500fffa,800020d0,00000000,00000000,f,00000000,80,06,0,1,0,0,0
